I2C> [0xA0 0x00 [0xA1 r:256]

I2C START
TX: 0xA0 ACK 0x00 ACK
I2C START
TX: 0xA1 ACK
RX: 0xFF ACK 0xFF ACK 0xFF ACK 0xFF ACK 0xFF ACK 0xFF ACK 0xFF ACK 0xFF ACK
    0xFF ACK 0x52 ACK 0x00 ACK 0x0E ACK 0x01 ACK 0xB4 ACK 0xC8 ACK 0x03 ACK
    0x10 ACK 0x17 ACK 0x0F ACK 0x27 ACK 0x20 ACK 0x03 ACK 0x3E ACK 0x3E ACK
    0x3C ACK 0x3C ACK 0xFF ACK 0x3C ACK 0x0A ACK 0xFF ACK 0x40 ACK 0xFF ACK
    0x64 ACK 0x98 ACK 0x68 ACK 0xAB ACK 0x09 ACK 0x16 ACK 0x28 ACK 0x00 ACK
    0x00 ACK 0x80 ACK 0xE3 ACK 0x80 ACK 0x00 ACK 0x80 ACK 0x18 ACK 0x81 ACK
    0x4E ACK 0x02 ACK 0x09 ACK 0xF7 ACK 0x04 ACK 0x09 ACK 0x11 ACK 0x00 ACK
    0x0B ACK 0x6A ACK 0x17 ACK 0x0A ACK 0x3A ACK 0xFE ACK 0x09 ACK 0x00 ACK
    0x00 ACK 0x01 ACK 0x00 ACK 0x01 ACK 0x00 ACK 0x07 ACK 0x98 ACK 0x00 ACK
    0x64 ACK 0x00 ACK 0x64 ACK 0x00 ACK 0x64 ACK 0x00 ACK 0x00 ACK 0x00 ACK
    0x70 ACK 0x81 ACK 0x00 ACK 0x80 ACK 0x00 ACK 0x80 ACK 0x00 ACK 0x80 ACK
    0x00 ACK 0x80 ACK 0x00 ACK 0x80 ACK 0x00 ACK 0x80 ACK 0x00 ACK 0x80 ACK
    0x7C ACK 0x7F ACK 0x49 ACK 0x80 ACK 0x01 ACK 0x00 ACK 0xA9 ACK 0x2A ACK
    0x00 ACK 0x00 ACK 0x00 ACK 0x00 ACK 0x00 ACK 0x00 ACK 0x00 ACK 0x00 ACK
    0xE5 ACK 0x7F ACK 0x00 ACK 0x80 ACK 0xBA ACK 0x82 ACK 0xE0 ACK 0x7C ACK
    0xE0 ACK 0x01 ACK 0x00 ACK 0x00 ACK 0x00 ACK 0x00 ACK 0x00 ACK 0x00 ACK
    0x20 ACK 0x22 ACK 0x00 ACK 0x32 ACK 0x30 ACK 0x03 ACK 0x13 ACK 0x18 ACK
    0x10 ACK 0x41 ACK 0x42 ACK 0x0A ACK 0x40 ACK 0x0F ACK 0x43 ACK 0x45 ACK
    0x21 ACK 0x23 ACK 0x33 ACK 0x31 ACK 0x17 ACK 0x00 ACK 0x14 ACK 0x07 ACK
    0x11 ACK 0x12 ACK 0x0B ACK 0x0C ACK 0x0E ACK 0x0D ACK 0x44 ACK 0x00 ACK
    0x00 ACK 0x00 ACK 0x00 ACK 0x00 ACK 0x00 ACK 0x04 ACK 0x15 ACK 0x00 ACK
    0x00 ACK 0x00 ACK 0x00 ACK 0x00 ACK 0x00 ACK 0x00 ACK 0x00 ACK 0x00 ACK
    0x00 ACK 0x00 ACK 0x00 ACK 0x00 ACK 0x00 ACK 0x00 ACK 0x00 ACK 0x00 ACK
    0x00 ACK 0x00 ACK 0x00 ACK 0x00 ACK 0x00 ACK 0x00 ACK 0x00 ACK 0x00 ACK
    0x0D ACK 0x00 ACK 0x02 ACK 0x10 ACK 0x00 ACK 0x00 ACK 0x00 ACK 0x00 ACK
    0x20 ACK 0x00 ACK 0x03 ACK 0x20 ACK 0x20 ACK 0x00 ACK 0x03 ACK 0x10 ACK
    0x00 ACK 0x80 ACK 0x00 ACK 0x80 ACK 0x00 ACK 0x80 ACK 0x00 ACK 0x80 ACK
    0x41 ACK 0x00 ACK 0x03 ACK 0x05 ACK 0x0D ACK 0x00 ACK 0x02 ACK 0x20 ACK
    0x00 ACK 0x80 ACK 0x00 ACK 0x80 ACK 0x00 ACK 0x80 ACK 0x00 ACK 0x80 ACK
    0x00 ACK 0x80 ACK 0x00 ACK 0x80 ACK 0x00 ACK 0x80 ACK 0x00 ACK 0x80 ACK
    0x00 ACK 0x80 ACK 0x00 ACK 0x80 ACK 0xFF ACK 0xFF ACK 0xFF ACK 0xFF ACK
    0x5A ACK 0xC7 ACK 0xCC ACK 0xC8 ACK 0x00 ACK 0x82 ACK 0x00 ACK 0x00 NACK

I2C STOP

I2C> [0xA0 0x00 [0xA1 r:256]

I2C START
TX: 0xA0 ACK 0x00 ACK
I2C START
TX: 0xA1 ACK
RX: 0xFF ACK 0xFF ACK 0xFF ACK 0xFF ACK 0xFF ACK 0xFF ACK 0xFF ACK 0xFF ACK
    0xFF ACK 0x52 ACK 0x00 ACK 0x0E ACK 0x01 ACK 0xB4 ACK 0xC8 ACK 0x03 ACK
    0x10 ACK 0x17 ACK 0x0F ACK 0x27 ACK 0x20 ACK 0x03 ACK 0x3E ACK 0x3E ACK
    0x3C ACK 0x3C ACK 0xFF ACK 0x3C ACK 0x0A ACK 0xFF ACK 0x40 ACK 0xFF ACK
    0x64 ACK 0x98 ACK 0x68 ACK 0xAB ACK 0x09 ACK 0x16 ACK 0x28 ACK 0x00 ACK
    0x00 ACK 0x80 ACK 0xE3 ACK 0x80 ACK 0x00 ACK 0x80 ACK 0x18 ACK 0x81 ACK
    0x4E ACK 0x02 ACK 0x09 ACK 0xF7 ACK 0x04 ACK 0x09 ACK 0x11 ACK 0x00 ACK
    0x0B ACK 0x6A ACK 0x17 ACK 0x0A ACK 0x3A ACK 0xFE ACK 0x09 ACK 0x00 ACK
    0x00 ACK 0x01 ACK 0x00 ACK 0x01 ACK 0x00 ACK 0x07 ACK 0x98 ACK 0x00 ACK
    0x64 ACK 0x00 ACK 0x64 ACK 0x00 ACK 0x64 ACK 0x00 ACK 0x00 ACK 0x00 ACK
    0x70 ACK 0x81 ACK 0x00 ACK 0x80 ACK 0x00 ACK 0x80 ACK 0x00 ACK 0x80 ACK
    0x00 ACK 0x80 ACK 0x00 ACK 0x80 ACK 0x00 ACK 0x80 ACK 0x00 ACK 0x80 ACK
    0x7C ACK 0x7F ACK 0x49 ACK 0x80 ACK 0x01 ACK 0x00 ACK 0xA9 ACK 0x2A ACK
    0x00 ACK 0x00 ACK 0x00 ACK 0x00 ACK 0x00 ACK 0x00 ACK 0x00 ACK 0x00 ACK
    0xE5 ACK 0x7F ACK 0x00 ACK 0x80 ACK 0xBA ACK 0x82 ACK 0xE0 ACK 0x7C ACK
    0xE0 ACK 0x01 ACK 0x00 ACK 0x00 ACK 0x00 ACK 0x00 ACK 0x00 ACK 0x00 ACK
    0x20 ACK 0x22 ACK 0x00 ACK 0x32 ACK 0x30 ACK 0x03 ACK 0x13 ACK 0x18 ACK
    0x10 ACK 0x41 ACK 0x42 ACK 0x0A ACK 0x40 ACK 0x0F ACK 0x43 ACK 0x45 ACK
    0x21 ACK 0x23 ACK 0x33 ACK 0x31 ACK 0x17 ACK 0x00 ACK 0x14 ACK 0x07 ACK
    0x11 ACK 0x12 ACK 0x0B ACK 0x0C ACK 0x0E ACK 0x0D ACK 0x44 ACK 0x00 ACK
    0x00 ACK 0x00 ACK 0x00 ACK 0x00 ACK 0x00 ACK 0x04 ACK 0x15 ACK 0x00 ACK
    0x00 ACK 0x00 ACK 0x00 ACK 0x00 ACK 0x00 ACK 0x00 ACK 0x00 ACK 0x00 ACK
    0x00 ACK 0x00 ACK 0x00 ACK 0x00 ACK 0x00 ACK 0x00 ACK 0x00 ACK 0x00 ACK
    0x00 ACK 0x00 ACK 0x00 ACK 0x00 ACK 0x00 ACK 0x00 ACK 0x00 ACK 0x00 ACK
    0x0D ACK 0x00 ACK 0x02 ACK 0x10 ACK 0x00 ACK 0x00 ACK 0x00 ACK 0x00 ACK
    0x20 ACK 0x00 ACK 0x03 ACK 0x20 ACK 0x20 ACK 0x00 ACK 0x03 ACK 0x10 ACK
    0x00 ACK 0x80 ACK 0x00 ACK 0x80 ACK 0x00 ACK 0x80 ACK 0x00 ACK 0x80 ACK
    0x41 ACK 0x00 ACK 0x03 ACK 0x05 ACK 0x0D ACK 0x00 ACK 0x02 ACK 0x20 ACK
    0x00 ACK 0x80 ACK 0x00 ACK 0x80 ACK 0x00 ACK 0x80 ACK 0x00 ACK 0x80 ACK
    0x00 ACK 0x80 ACK 0x00 ACK 0x80 ACK 0x00 ACK 0x80 ACK 0x00 ACK 0x80 ACK
    0x00 ACK 0x80 ACK 0x00 ACK 0x80 ACK 0xFF ACK 0xFF ACK 0xFF ACK 0xFF ACK
    0x5A ACK 0xC7 ACK 0xCC ACK 0xC8 ACK 0x00 ACK 0x82 ACK 0x00 ACK 0x00 NACK

I2C STOP

I2C> scan
I2C address search:
0x50 (0xA0 W) (0xA1 R)
0x51 (0xA2 W) (0xA3 R)
0x58 (0xB0 W) (0xB1 R)
0x59 (0xB2 W) (0xB3 R)

Found 8 addresses, 4 W/R pairs.

I2C> [0xA0 0x00 [0xA1 r:256]

I2C START
TX: 0xA0 ACK 0x00 ACK
I2C START
TX: 0xA1 ACK
RX: 0xFF ACK 0xFF ACK 0xFF ACK 0xFF ACK 0xFF ACK 0xFF ACK 0xFF ACK 0xFF ACK
    0xFF ACK 0x52 ACK 0x00 ACK 0x0E ACK 0x01 ACK 0xB4 ACK 0xC8 ACK 0x03 ACK
    0x10 ACK 0x17 ACK 0x0F ACK 0x27 ACK 0x20 ACK 0x03 ACK 0x3E ACK 0x3E ACK
    0x3C ACK 0x3C ACK 0xFF ACK 0x3C ACK 0x0A ACK 0xFF ACK 0x40 ACK 0xFF ACK
    0x64 ACK 0x98 ACK 0x68 ACK 0xAB ACK 0x09 ACK 0x16 ACK 0x28 ACK 0x00 ACK
    0x00 ACK 0x80 ACK 0xE3 ACK 0x80 ACK 0x00 ACK 0x80 ACK 0x18 ACK 0x81 ACK
    0x4E ACK 0x02 ACK 0x09 ACK 0xF7 ACK 0x04 ACK 0x09 ACK 0x11 ACK 0x00 ACK
    0x0B ACK 0x6A ACK 0x17 ACK 0x0A ACK 0x3A ACK 0xFE ACK 0x09 ACK 0x00 ACK
    0x00 ACK 0x01 ACK 0x00 ACK 0x01 ACK 0x00 ACK 0x07 ACK 0x98 ACK 0x00 ACK
    0x64 ACK 0x00 ACK 0x64 ACK 0x00 ACK 0x64 ACK 0x00 ACK 0x00 ACK 0x00 ACK
    0x70 ACK 0x81 ACK 0x00 ACK 0x80 ACK 0x00 ACK 0x80 ACK 0x00 ACK 0x80 ACK
    0x00 ACK 0x80 ACK 0x00 ACK 0x80 ACK 0x00 ACK 0x80 ACK 0x00 ACK 0x80 ACK
    0x7C ACK 0x7F ACK 0x49 ACK 0x80 ACK 0x01 ACK 0x00 ACK 0xA9 ACK 0x2A ACK
    0x00 ACK 0x00 ACK 0x00 ACK 0x00 ACK 0x00 ACK 0x00 ACK 0x00 ACK 0x00 ACK
    0xE5 ACK 0x7F ACK 0x00 ACK 0x80 ACK 0xBA ACK 0x82 ACK 0xE0 ACK 0x7C ACK
    0xE0 ACK 0x01 ACK 0x00 ACK 0x00 ACK 0x00 ACK 0x00 ACK 0x00 ACK 0x00 ACK
    0x20 ACK 0x22 ACK 0x00 ACK 0x32 ACK 0x30 ACK 0x03 ACK 0x13 ACK 0x18 ACK
    0x10 ACK 0x41 ACK 0x42 ACK 0x0A ACK 0x40 ACK 0x0F ACK 0x43 ACK 0x45 ACK
    0x21 ACK 0x23 ACK 0x33 ACK 0x31 ACK 0x17 ACK 0x00 ACK 0x14 ACK 0x07 ACK
    0x11 ACK 0x12 ACK 0x0B ACK 0x0C ACK 0x0E ACK 0x0D ACK 0x44 ACK 0x00 ACK
    0x00 ACK 0x00 ACK 0x00 ACK 0x00 ACK 0x00 ACK 0x04 ACK 0x15 ACK 0x00 ACK
    0x00 ACK 0x00 ACK 0x00 ACK 0x00 ACK 0x00 ACK 0x00 ACK 0x00 ACK 0x00 ACK
    0x00 ACK 0x00 ACK 0x00 ACK 0x00 ACK 0x00 ACK 0x00 ACK 0x00 ACK 0x00 ACK
    0x00 ACK 0x00 ACK 0x00 ACK 0x00 ACK 0x00 ACK 0x00 ACK 0x00 ACK 0x00 ACK
    0x0D ACK 0x00 ACK 0x02 ACK 0x10 ACK 0x00 ACK 0x00 ACK 0x00 ACK 0x00 ACK
    0x20 ACK 0x00 ACK 0x03 ACK 0x20 ACK 0x20 ACK 0x00 ACK 0x03 ACK 0x10 ACK
    0x00 ACK 0x80 ACK 0x00 ACK 0x80 ACK 0x00 ACK 0x80 ACK 0x00 ACK 0x80 ACK
    0x41 ACK 0x00 ACK 0x03 ACK 0x05 ACK 0x0D ACK 0x00 ACK 0x02 ACK 0x20 ACK
    0x00 ACK 0x80 ACK 0x00 ACK 0x80 ACK 0x00 ACK 0x80 ACK 0x00 ACK 0x80 ACK
    0x00 ACK 0x80 ACK 0x00 ACK 0x80 ACK 0x00 ACK 0x80 ACK 0x00 ACK 0x80 ACK
    0x00 ACK 0x80 ACK 0x00 ACK 0x80 ACK 0xFF ACK 0xFF ACK 0xFF ACK 0xFF ACK
    0x5A ACK 0xC7 ACK 0xCC ACK 0xC8 ACK 0x00 ACK 0x82 ACK 0x00 ACK 0x00 NACK

I2C STOP

I2C> [0xA2 0x00 [0xA3 r:256]

I2C START
TX: 0xA2 ACK 0x00 ACK
I2C START
TX: 0xA3 ACK
RX: 0x06 ACK 0x90 ACK 0x08 ACK 0x00 ACK 0x7C ACK 0xC4 ACK 0x03 ACK 0x15 ACK
    0x00 ACK 0xD7 ACK 0x20 ACK 0x74 ACK 0x83 ACK 0x00 ACK 0xFF ACK 0xFF ACK
    0x00 ACK 0x60 ACK 0x98 ACK 0x00 ACK 0x7C ACK 0xC4 ACK 0x03 ACK 0x05 ACK
    0x00 ACK 0xD7 ACK 0x20 ACK 0x74 ACK 0x83 ACK 0x00 ACK 0xFF ACK 0xFF ACK
    0x00 ACK 0x00 ACK 0x68 ACK 0x90 ACK 0x7C ACK 0xC4 ACK 0x03 ACK 0x05 ACK
    0x00 ACK 0xD7 ACK 0x20 ACK 0x74 ACK 0x83 ACK 0x00 ACK 0xFF ACK 0xFF ACK
    0x00 ACK 0x00 ACK 0x08 ACK 0x69 ACK 0x7C ACK 0xC4 ACK 0x03 ACK 0x05 ACK
    0x00 ACK 0xD7 ACK 0x20 ACK 0x74 ACK 0x83 ACK 0x00 ACK 0xFF ACK 0xFF ACK
    0x00 ACK 0x80 ACK 0x80 ACK 0x00 ACK 0x7C ACK 0xE0 ACK 0x30 ACK 0x1A ACK
    0x21 ACK 0x60 ACK 0x95 ACK 0x00 ACK 0x00 ACK 0x00 ACK 0xFF ACK 0xFF ACK
    0x00 ACK 0x00 ACK 0x80 ACK 0x00 ACK 0x7C ACK 0xE4 ACK 0x31 ACK 0x06 ACK
    0x89 ACK 0x66 ACK 0x85 ACK 0xB4 ACK 0xB3 ACK 0x00 ACK 0xFF ACK 0xFF ACK
    0x00 ACK 0x00 ACK 0x00 ACK 0x80 ACK 0x7C ACK 0xE4 ACK 0x31 ACK 0x06 ACK
    0x89 ACK 0x66 ACK 0x85 ACK 0xB4 ACK 0xB3 ACK 0x00 ACK 0xFF ACK 0xFF ACK
    0x00 ACK 0x00 ACK 0x00 ACK 0x08 ACK 0x7C ACK 0xE4 ACK 0x32 ACK 0x06 ACK
    0x8E ACK 0x66 ACK 0x85 ACK 0xB4 ACK 0xB3 ACK 0x00 ACK 0xFF ACK 0xFF ACK
    0x08 ACK 0xB0 ACK 0x00 ACK 0x00 ACK 0x58 ACK 0x07 ACK 0x07 ACK 0xA0 ACK
    0x00 ACK 0x74 ACK 0x01 ACK 0x74 ACK 0x83 ACK 0x10 ACK 0xFF ACK 0xFF ACK
    0x00 ACK 0x00 ACK 0x04 ACK 0x06 ACK 0xFC ACK 0xEF ACK 0x03 ACK 0x14 ACK
    0xDF ACK 0x76 ACK 0x85 ACK 0x00 ACK 0x8F ACK 0x00 ACK 0xFF ACK 0xFF ACK
    0x00 ACK 0x00 ACK 0x04 ACK 0x60 ACK 0xFC ACK 0xCF ACK 0x03 ACK 0x14 ACK
    0xBF ACK 0x16 ACK 0x85 ACK 0x00 ACK 0x8F ACK 0x00 ACK 0xFF ACK 0xFF ACK
    0x00 ACK 0x00 ACK 0x64 ACK 0x00 ACK 0xFC ACK 0xCF ACK 0x03 ACK 0x14 ACK
    0xBF ACK 0x16 ACK 0x85 ACK 0x00 ACK 0x8F ACK 0x00 ACK 0xFF ACK 0xFF ACK
    0x00 ACK 0x60 ACK 0x04 ACK 0x00 ACK 0xFC ACK 0xCF ACK 0x03 ACK 0x14 ACK
    0xBF ACK 0x16 ACK 0x85 ACK 0x00 ACK 0x8F ACK 0x00 ACK 0xFF ACK 0xFF ACK
    0x06 ACK 0x00 ACK 0x04 ACK 0x00 ACK 0xFC ACK 0xCF ACK 0x03 ACK 0x14 ACK
    0xBF ACK 0x16 ACK 0x85 ACK 0x00 ACK 0x8F ACK 0x00 ACK 0xFF ACK 0xFF ACK
    0x06 ACK 0x00 ACK 0x04 ACK 0x00 ACK 0xFC ACK 0xCF ACK 0x03 ACK 0x24 ACK
    0xBF ACK 0x16 ACK 0x85 ACK 0x04 ACK 0x8F ACK 0x00 ACK 0xFF ACK 0xFF ACK
    0x06 ACK 0x00 ACK 0x04 ACK 0x00 ACK 0xFC ACK 0xCF ACK 0x03 ACK 0x24 ACK
    0xBF ACK 0x16 ACK 0x85 ACK 0x04 ACK 0x8F ACK 0x00 ACK 0xFF ACK 0xFF NACK

I2C STOP

I2C> [0xA2 0x00 [0xA3 r:256]

I2C START
TX: 0xA2 ACK 0x00 ACK
I2C START
TX: 0xA3 ACK
RX: 0x06 ACK 0x90 ACK 0x08 ACK 0x00 ACK 0x7C ACK 0xC4 ACK 0x03 ACK 0x15 ACK
    0x00 ACK 0xD7 ACK 0x20 ACK 0x74 ACK 0x83 ACK 0x00 ACK 0xFF ACK 0xFF ACK
    0x00 ACK 0x60 ACK 0x98 ACK 0x00 ACK 0x7C ACK 0xC4 ACK 0x03 ACK 0x05 ACK
    0x00 ACK 0xD7 ACK 0x20 ACK 0x74 ACK 0x83 ACK 0x00 ACK 0xFF ACK 0xFF ACK
    0x00 ACK 0x00 ACK 0x68 ACK 0x90 ACK 0x7C ACK 0xC4 ACK 0x03 ACK 0x05 ACK
    0x00 ACK 0xD7 ACK 0x20 ACK 0x74 ACK 0x83 ACK 0x00 ACK 0xFF ACK 0xFF ACK
    0x00 ACK 0x00 ACK 0x08 ACK 0x69 ACK 0x7C ACK 0xC4 ACK 0x03 ACK 0x05 ACK
    0x00 ACK 0xD7 ACK 0x20 ACK 0x74 ACK 0x83 ACK 0x00 ACK 0xFF ACK 0xFF ACK
    0x00 ACK 0x80 ACK 0x80 ACK 0x00 ACK 0x7C ACK 0xE0 ACK 0x30 ACK 0x1A ACK
    0x21 ACK 0x60 ACK 0x95 ACK 0x00 ACK 0x00 ACK 0x00 ACK 0xFF ACK 0xFF ACK
    0x00 ACK 0x00 ACK 0x80 ACK 0x00 ACK 0x7C ACK 0xE4 ACK 0x31 ACK 0x06 ACK
    0x89 ACK 0x66 ACK 0x85 ACK 0xB4 ACK 0xB3 ACK 0x00 ACK 0xFF ACK 0xFF ACK
    0x00 ACK 0x00 ACK 0x00 ACK 0x80 ACK 0x7C ACK 0xE4 ACK 0x31 ACK 0x06 ACK
    0x89 ACK 0x66 ACK 0x85 ACK 0xB4 ACK 0xB3 ACK 0x00 ACK 0xFF ACK 0xFF ACK
    0x00 ACK 0x00 ACK 0x00 ACK 0x08 ACK 0x7C ACK 0xE4 ACK 0x32 ACK 0x06 ACK
    0x8E ACK 0x66 ACK 0x85 ACK 0xB4 ACK 0xB3 ACK 0x00 ACK 0xFF ACK 0xFF ACK
    0x08 ACK 0xB0 ACK 0x00 ACK 0x00 ACK 0x58 ACK 0x07 ACK 0x07 ACK 0xA0 ACK
    0x00 ACK 0x74 ACK 0x01 ACK 0x74 ACK 0x83 ACK 0x10 ACK 0xFF ACK 0xFF ACK
    0x00 ACK 0x00 ACK 0x04 ACK 0x06 ACK 0xFC ACK 0xEF ACK 0x03 ACK 0x14 ACK
    0xDF ACK 0x76 ACK 0x85 ACK 0x00 ACK 0x8F ACK 0x00 ACK 0xFF ACK 0xFF ACK
    0x00 ACK 0x00 ACK 0x04 ACK 0x60 ACK 0xFC ACK 0xCF ACK 0x03 ACK 0x14 ACK
    0xBF ACK 0x16 ACK 0x85 ACK 0x00 ACK 0x8F ACK 0x00 ACK 0xFF ACK 0xFF ACK
    0x00 ACK 0x00 ACK 0x64 ACK 0x00 ACK 0xFC ACK 0xCF ACK 0x03 ACK 0x14 ACK
    0xBF ACK 0x16 ACK 0x85 ACK 0x00 ACK 0x8F ACK 0x00 ACK 0xFF ACK 0xFF ACK
    0x00 ACK 0x60 ACK 0x04 ACK 0x00 ACK 0xFC ACK 0xCF ACK 0x03 ACK 0x14 ACK
    0xBF ACK 0x16 ACK 0x85 ACK 0x00 ACK 0x8F ACK 0x00 ACK 0xFF ACK 0xFF ACK
    0x06 ACK 0x00 ACK 0x04 ACK 0x00 ACK 0xFC ACK 0xCF ACK 0x03 ACK 0x14 ACK
    0xBF ACK 0x16 ACK 0x85 ACK 0x00 ACK 0x8F ACK 0x00 ACK 0xFF ACK 0xFF ACK
    0x06 ACK 0x00 ACK 0x04 ACK 0x00 ACK 0xFC ACK 0xCF ACK 0x03 ACK 0x24 ACK
    0xBF ACK 0x16 ACK 0x85 ACK 0x04 ACK 0x8F ACK 0x00 ACK 0xFF ACK 0xFF ACK
    0x06 ACK 0x00 ACK 0x04 ACK 0x00 ACK 0xFC ACK 0xCF ACK 0x03 ACK 0x24 ACK
    0xBF ACK 0x16 ACK 0x85 ACK 0x04 ACK 0x8F ACK 0x00 ACK 0xFF ACK 0xFF NACK

I2C STOP

I2C> [0xB0 0x00 [0xB1 r:256]

I2C START
TX: 0xB0 ACK 0x00 ACK
I2C START
TX: 0xB1 ACK
RX: 0xFF ACK 0xFF ACK 0xFF ACK 0xFF ACK 0xFF ACK 0xFF ACK 0xFF ACK 0xFF ACK
    0xFF ACK 0xFF ACK 0xFF ACK 0xFF ACK 0xFF ACK 0xFF ACK 0xFF ACK 0xFF ACK
    0xFF ACK 0xFF ACK 0xFF ACK 0xFF ACK 0xFF ACK 0xFF ACK 0xFF ACK 0xFF ACK
    0xFF ACK 0xFF ACK 0xFF ACK 0xFF ACK 0xFF ACK 0xFF ACK 0xFF ACK 0xFF ACK
    0xFF ACK 0xFF ACK 0xFF ACK 0xFF ACK 0xFF ACK 0xFF ACK 0xFF ACK 0xFF ACK
    0xFF ACK 0xFF ACK 0xFF ACK 0xFF ACK 0xFF ACK 0xFF ACK 0xFF ACK 0xFF ACK
    0xFF ACK 0xFF ACK 0xFF ACK 0xFF ACK 0xFF ACK 0xFF ACK 0xFF ACK 0xFF ACK
    0xFF ACK 0xFF ACK 0xFF ACK 0xFF ACK 0xFF ACK 0xFF ACK 0xFF ACK 0xFF ACK
    0xFF ACK 0xFF ACK 0xFF ACK 0xFF ACK 0xFF ACK 0xFF ACK 0xFF ACK 0xFF ACK
    0xFF ACK 0xFF ACK 0xFF ACK 0xFF ACK 0xFF ACK 0xFF ACK 0xFF ACK 0xFF ACK
    0xFF ACK 0xFF ACK 0xFF ACK 0xFF ACK 0xFF ACK 0xFF ACK 0xFF ACK 0xFF ACK
    0xFF ACK 0xFF ACK 0xFF ACK 0xFF ACK 0xFF ACK 0xFF ACK 0xFF ACK 0xFF ACK
    0xFF ACK 0xFF ACK 0xFF ACK 0xFF ACK 0xFF ACK 0xFF ACK 0xFF ACK 0xFF ACK
    0xFF ACK 0xFF ACK 0xFF ACK 0xFF ACK 0xFF ACK 0xFF ACK 0xFF ACK 0xFF ACK
    0xFF ACK 0xFF ACK 0xFF ACK 0xFF ACK 0xFF ACK 0xFF ACK 0xFF ACK 0xFF ACK
    0xFF ACK 0xFF ACK 0xFF ACK 0xFF ACK 0xFF ACK 0xFF ACK 0xFF ACK 0xFF ACK
    0xFF ACK 0xFF ACK 0xFF ACK 0xFF ACK 0xFF ACK 0xFF ACK 0xFF ACK 0xFF ACK
    0xFF ACK 0xFF ACK 0xFF ACK 0xFF ACK 0xFF ACK 0xFF ACK 0xFF ACK 0xFF ACK
    0xFF ACK 0xFF ACK 0xFF ACK 0xFF ACK 0xFF ACK 0xFF ACK 0xFF ACK 0xFF ACK
    0xFF ACK 0xFF ACK 0xFF ACK 0xFF ACK 0xFF ACK 0xFF ACK 0xFF ACK 0xFF ACK
    0xFF ACK 0xFF ACK 0xFF ACK 0xFF ACK 0xFF ACK 0xFF ACK 0xFF ACK 0xFF ACK
    0xFF ACK 0xFF ACK 0xFF ACK 0xFF ACK 0xFF ACK 0xFF ACK 0xFF ACK 0xFF ACK
    0xFF ACK 0xFF ACK 0xFF ACK 0xFF ACK 0xFF ACK 0xFF ACK 0xFF ACK 0xFF ACK
    0xFF ACK 0xFF ACK 0xFF ACK 0xFF ACK 0xFF ACK 0xFF ACK 0xFF ACK 0xFF ACK
    0xFF ACK 0xFF ACK 0xFF ACK 0xFF ACK 0xFF ACK 0xFF ACK 0xFF ACK 0xFF ACK
    0xFF ACK 0xFF ACK 0xFF ACK 0xFF ACK 0xFF ACK 0xFF ACK 0xFF ACK 0xFF ACK
    0xFF ACK 0xFF ACK 0xFF ACK 0xFF ACK 0xFF ACK 0xFF ACK 0xFF ACK 0xFF ACK
    0xFF ACK 0xFF ACK 0xFF ACK 0xFF ACK 0xFF ACK 0xFF ACK 0xFF ACK 0xFF ACK
    0xFF ACK 0xFF ACK 0xFF ACK 0xFF ACK 0xFF ACK 0xFF ACK 0xFF ACK 0xFF ACK
    0xFF ACK 0xFF ACK 0xFF ACK 0xFF ACK 0xFF ACK 0xFF ACK 0xFF ACK 0xFF ACK
    0xFF ACK 0xFF ACK 0xFF ACK 0xFF ACK 0xFF ACK 0xFF ACK 0xFF ACK 0xFF ACK
    0xFF ACK 0xFF ACK 0xFF ACK 0xFF ACK 0xFF ACK 0xFF ACK 0xFF ACK 0xFF NACK

I2C STOP

I2C> [0xB0 0x00 [0xB1 r:256]

I2C START
TX: 0xB0 ACK 0x00 ACK
I2C START
TX: 0xB1 ACK
RX: 0xFF ACK 0xFF ACK 0xFF ACK 0xFF ACK 0xFF ACK 0xFF ACK 0xFF ACK 0xFF ACK
    0xFF ACK 0xFF ACK 0xFF ACK 0xFF ACK 0xFF ACK 0xFF ACK 0xFF ACK 0xFF ACK
    0xFF ACK 0xFF ACK 0xFF ACK 0xFF ACK 0xFF ACK 0xFF ACK 0xFF ACK 0xFF ACK
    0xFF ACK 0xFF ACK 0xFF ACK 0xFF ACK 0xFF ACK 0xFF ACK 0xFF ACK 0xFF ACK
    0xFF ACK 0xFF ACK 0xFF ACK 0xFF ACK 0xFF ACK 0xFF ACK 0xFF ACK 0xFF ACK
    0xFF ACK 0xFF ACK 0xFF ACK 0xFF ACK 0xFF ACK 0xFF ACK 0xFF ACK 0xFF ACK
    0xFF ACK 0xFF ACK 0xFF ACK 0xFF ACK 0xFF ACK 0xFF ACK 0xFF ACK 0xFF ACK
    0xFF ACK 0xFF ACK 0xFF ACK 0xFF ACK 0xFF ACK 0xFF ACK 0xFF ACK 0xFF ACK
    0xFF ACK 0xFF ACK 0xFF ACK 0xFF ACK 0xFF ACK 0xFF ACK 0xFF ACK 0xFF ACK
    0xFF ACK 0xFF ACK 0xFF ACK 0xFF ACK 0xFF ACK 0xFF ACK 0xFF ACK 0xFF ACK
    0xFF ACK 0xFF ACK 0xFF ACK 0xFF ACK 0xFF ACK 0xFF ACK 0xFF ACK 0xFF ACK
    0xFF ACK 0xFF ACK 0xFF ACK 0xFF ACK 0xFF ACK 0xFF ACK 0xFF ACK 0xFF ACK
    0xFF ACK 0xFF ACK 0xFF ACK 0xFF ACK 0xFF ACK 0xFF ACK 0xFF ACK 0xFF ACK
    0xFF ACK 0xFF ACK 0xFF ACK 0xFF ACK 0xFF ACK 0xFF ACK 0xFF ACK 0xFF ACK
    0xFF ACK 0xFF ACK 0xFF ACK 0xFF ACK 0xFF ACK 0xFF ACK 0xFF ACK 0xFF ACK
    0xFF ACK 0xFF ACK 0xFF ACK 0xFF ACK 0xFF ACK 0xFF ACK 0xFF ACK 0xFF ACK
    0xFF ACK 0xFF ACK 0xFF ACK 0xFF ACK 0xFF ACK 0xFF ACK 0xFF ACK 0xFF ACK
    0xFF ACK 0xFF ACK 0xFF ACK 0xFF ACK 0xFF ACK 0xFF ACK 0xFF ACK 0xFF ACK
    0xFF ACK 0xFF ACK 0xFF ACK 0xFF ACK 0xFF ACK 0xFF ACK 0xFF ACK 0xFF ACK
    0xFF ACK 0xFF ACK 0xFF ACK 0xFF ACK 0xFF ACK 0xFF ACK 0xFF ACK 0xFF ACK
    0xFF ACK 0xFF ACK 0xFF ACK 0xFF ACK 0xFF ACK 0xFF ACK 0xFF ACK 0xFF ACK
    0xFF ACK 0xFF ACK 0xFF ACK 0xFF ACK 0xFF ACK 0xFF ACK 0xFF ACK 0xFF ACK
    0xFF ACK 0xFF ACK 0xFF ACK 0xFF ACK 0xFF ACK 0xFF ACK 0xFF ACK 0xFF ACK
    0xFF ACK 0xFF ACK 0xFF ACK 0xFF ACK 0xFF ACK 0xFF ACK 0xFF ACK 0xFF ACK
    0xFF ACK 0xFF ACK 0xFF ACK 0xFF ACK 0xFF ACK 0xFF ACK 0xFF ACK 0xFF ACK
    0xFF ACK 0xFF ACK 0xFF ACK 0xFF ACK 0xFF ACK 0xFF ACK 0xFF ACK 0xFF ACK
    0xFF ACK 0xFF ACK 0xFF ACK 0xFF ACK 0xFF ACK 0xFF ACK 0xFF ACK 0xFF ACK
    0xFF ACK 0xFF ACK 0xFF ACK 0xFF ACK 0xFF ACK 0xFF ACK 0xFF ACK 0xFF ACK
    0xFF ACK 0xFF ACK 0xFF ACK 0xFF ACK 0xFF ACK 0xFF ACK 0xFF ACK 0xFF ACK
    0xFF ACK 0xFF ACK 0xFF ACK 0xFF ACK 0xFF ACK 0xFF ACK 0xFF ACK 0xFF ACK
    0xFF ACK 0xFF ACK 0xFF ACK 0xFF ACK 0xFF ACK 0xFF ACK 0xFF ACK 0xFF ACK
    0xFF ACK 0xFF ACK 0xFF ACK 0xFF ACK 0xFF ACK 0xFF ACK 0xFF ACK 0xFF NACK

I2C STOP

I2C> [0xB2 0x00 [0xB3 r:256]

I2C START
TX: 0xB2 ACK 0x00 ACK
I2C START
TX: 0xB3 ACK
RX: 0xFF ACK 0xFF ACK 0xFF ACK 0xFF ACK 0xFF ACK 0xFF ACK 0xFF ACK 0xFF ACK
    0xFF ACK 0xFF ACK 0xFF ACK 0xFF ACK 0xFF ACK 0xFF ACK 0xFF ACK 0xFF ACK
    0xFF ACK 0xFF ACK 0xFF ACK 0xFF ACK 0xFF ACK 0xFF ACK 0xFF ACK 0xFF ACK
    0xFF ACK 0xFF ACK 0xFF ACK 0xFF ACK 0xFF ACK 0xFF ACK 0xFF ACK 0xFF ACK
    0xFF ACK 0xFF ACK 0xFF ACK 0xFF ACK 0xFF ACK 0xFF ACK 0xFF ACK 0xFF ACK
    0xFF ACK 0xFF ACK 0xFF ACK 0xFF ACK 0xFF ACK 0xFF ACK 0xFF ACK 0xFF ACK
    0xFF ACK 0xFF ACK 0xFF ACK 0xFF ACK 0xFF ACK 0xFF ACK 0xFF ACK 0xFF ACK
    0xFF ACK 0xFF ACK 0xFF ACK 0xFF ACK 0xFF ACK 0xFF ACK 0xFF ACK 0xFF ACK
    0xFF ACK 0xFF ACK 0xFF ACK 0xFF ACK 0xFF ACK 0xFF ACK 0xFF ACK 0xFF ACK
    0xFF ACK 0xFF ACK 0xFF ACK 0xFF ACK 0xFF ACK 0xFF ACK 0xFF ACK 0xFF ACK
    0xFF ACK 0xFF ACK 0xFF ACK 0xFF ACK 0xFF ACK 0xFF ACK 0xFF ACK 0xFF ACK
    0xFF ACK 0xFF ACK 0xFF ACK 0xFF ACK 0xFF ACK 0xFF ACK 0xFF ACK 0xFF ACK
    0xFF ACK 0xFF ACK 0xFF ACK 0xFF ACK 0xFF ACK 0xFF ACK 0xFF ACK 0xFF ACK
    0xFF ACK 0xFF ACK 0xFF ACK 0xFF ACK 0xFF ACK 0xFF ACK 0xFF ACK 0xFF ACK
    0xFF ACK 0xFF ACK 0xFF ACK 0xFF ACK 0xFF ACK 0xFF ACK 0xFF ACK 0xFF ACK
    0xFF ACK 0xFF ACK 0xFF ACK 0xFF ACK 0xFF ACK 0xFF ACK 0xFF ACK 0xFF ACK
    0xFF ACK 0xFF ACK 0xFF ACK 0xFF ACK 0xFF ACK 0xFF ACK 0xFF ACK 0xFF ACK
    0xFF ACK 0xFF ACK 0xFF ACK 0xFF ACK 0xFF ACK 0xFF ACK 0xFF ACK 0xFF ACK
    0xFF ACK 0xFF ACK 0xFF ACK 0xFF ACK 0xFF ACK 0xFF ACK 0xFF ACK 0xFF ACK
    0xFF ACK 0xFF ACK 0xFF ACK 0xFF ACK 0xFF ACK 0xFF ACK 0xFF ACK 0xFF ACK
    0xFF ACK 0xFF ACK 0xFF ACK 0xFF ACK 0xFF ACK 0xFF ACK 0xFF ACK 0xFF ACK
    0xFF ACK 0xFF ACK 0xFF ACK 0xFF ACK 0xFF ACK 0xFF ACK 0xFF ACK 0xFF ACK
    0xFF ACK 0xFF ACK 0xFF ACK 0xFF ACK 0xFF ACK 0xFF ACK 0xFF ACK 0xFF ACK
    0xFF ACK 0xFF ACK 0xFF ACK 0xFF ACK 0xFF ACK 0xFF ACK 0xFF ACK 0xFF ACK
    0xFF ACK 0xFF ACK 0xFF ACK 0xFF ACK 0xFF ACK 0xFF ACK 0xFF ACK 0xFF ACK
    0xFF ACK 0xFF ACK 0xFF ACK 0xFF ACK 0xFF ACK 0xFF ACK 0xFF ACK 0xFF ACK
    0xFF ACK 0xFF ACK 0xFF ACK 0xFF ACK 0xFF ACK 0xFF ACK 0xFF ACK 0xFF ACK
    0xFF ACK 0xFF ACK 0xFF ACK 0xFF ACK 0xFF ACK 0xFF ACK 0xFF ACK 0xFF ACK
    0xFF ACK 0xFF ACK 0xFF ACK 0xFF ACK 0xFF ACK 0xFF ACK 0xFF ACK 0xFF ACK
    0xFF ACK 0xFF ACK 0xFF ACK 0xFF ACK 0xFF ACK 0xFF ACK 0xFF ACK 0xFF ACK
    0xFF ACK 0xFF ACK 0xFF ACK 0xFF ACK 0xFF ACK 0xFF ACK 0xFF ACK 0xFF ACK
    0xFF ACK 0xFF ACK 0xFF ACK 0xFF ACK 0xFF ACK 0xFF ACK 0xFF ACK 0xFF NACK

I2C STOP

